T9998 2212:406.144   SEGGER J-Link V7.52a Log File
T9998 2212:406.206   DLL Compiled: Jul 28 2021 11:08:12
T9998 2212:406.223   Logging started @ 2025-03-02 00:08
T9998 2212:406.239 - 64.891ms
T9998 2212:411.501 JLINK_ExecCommand("Device = AT91SAM4S8B", ...). 
T9998 2212:411.802   Device "ATSAM4S8B" selected.
T9998 2212:412.137 - 0.613ms returns 0x00
T9998 2212:412.164 JLINK_TIF_Select(JLINKARM_TIF_SWD)
T9998 2212:412.751 - 0.608ms returns 0x00
T9998 2212:412.784 JLINK_SetSpeed(4000)
T9998 2212:412.891 - 0.115ms
T9998 2212:412.910 JLINK_ResetPullsRESET(OFF)
T9998 2212:412.925 - 0.022ms
T9998 2212:412.941 JLINK_Connect()
T9998 2212:414.274   Found SW-DP with ID 0x2BA01477
T9998 2212:417.433   DPIDR: 0x2BA01477
T9998 2212:417.733   Scanning AP map to find all available APs
T9998 2212:418.439   AP[1]: Stopped AP scan as end of AP map has been reached
T9998 2212:418.457   AP[0]: AHB-AP (IDR: 0x24770011)
T9998 2212:418.470   Iterating through AP map to find AHB-AP to use
T9998 2212:419.488   AP[0]: Core found
T9998 2212:419.504   AP[0]: AHB-AP ROM base: 0xE00FF000
T9998 2212:420.014   CPUID register: 0x410FC241. Implementer code: 0x41 (ARM)
T9998 2212:420.032   Found Cortex-M4 r0p1, Little endian.
T9998 2212:521.026   -- Max. mem block: 0x00002B50
T9998 2212:521.190   CPU_ReadMem(4 bytes @ 0xE000EDF0)
T9998 2212:521.631   CPU_WriteMem(4 bytes @ 0xE000EDF0)
T9998 2212:521.928   CPU_ReadMem(4 bytes @ 0xE0002000)
T9998 2212:522.437   FPUnit: 6 code (BP) slots and 2 literal slots
T9998 2212:522.468   CPU_ReadMem(4 bytes @ 0xE000EDFC)
T9998 2212:522.920   CPU_WriteMem(4 bytes @ 0xE000EDFC)
T9998 2212:523.349   CPU_ReadMem(4 bytes @ 0xE0001000)
T9998 2212:523.701   CPU_WriteMem(4 bytes @ 0xE0001000)
T9998 2212:524.036   CPU_ReadMem(4 bytes @ 0xE000ED88)
T9998 2212:524.399   CPU_WriteMem(4 bytes @ 0xE000ED88)
T9998 2212:524.768   CPU_ReadMem(4 bytes @ 0xE000ED88)
T9998 2212:525.077   CPU_WriteMem(4 bytes @ 0xE000ED88)
T9998 2212:525.453   CoreSight components:
T9998 2212:525.469   ROMTbl[0] @ E00FF000
T9998 2212:525.476   CPU_ReadMem(64 bytes @ 0xE00FF000)
T9998 2212:526.693   CPU_ReadMem(32 bytes @ 0xE000EFE0)
T9998 2212:527.247   ROMTbl[0][0]: E000E000, CID: B105E00D, PID: 000BB000 SCS
T9998 2212:527.262   CPU_ReadMem(32 bytes @ 0xE0001FE0)
T9998 2212:528.815   ROMTbl[0][1]: E0001000, CID: B105E00D, PID: 003BB002 DWT
T9998 2212:528.835   CPU_ReadMem(32 bytes @ 0xE0002FE0)
T9998 2212:529.551   ROMTbl[0][2]: E0002000, CID: B105E00D, PID: 002BB003 FPB
T9998 2212:529.568   CPU_ReadMem(32 bytes @ 0xE0000FE0)
T9998 2212:530.220   ROMTbl[0][3]: E0000000, CID: B105E00D, PID: 003BB001 ITM
T9998 2212:530.237   CPU_ReadMem(32 bytes @ 0xE0040FE0)
T9998 2212:530.732   ROMTbl[0][4]: E0040000, CID: B105900D, PID: 000BB9A1 TPIU
T9998 2212:530.745 - 117.806ms returns 0x00
T9998 2212:531.085 JLINK_Halt()
T9998 2212:534.016 - 2.938ms returns 0x00
T9998 2212:534.172 JLINK_BeginDownload(Flags = 0x00000000)
T9998 2212:534.190 - 0.041ms
T9998 2212:534.294 JLINK_WriteMem(0x400E0A04, 0x4 Bytes, ...)
T9998 2212:534.348   Data:  0B 01 00 5A
T9998 2212:534.656   CPU_WriteMem(4 bytes @ 0x400E0A04)
T9998 2212:535.039 - 0.752ms returns 0x4
T9998 2212:535.070 JLINK_EndDownload()
T9998 2212:535.077 - 0.009ms returns 0 (0x0)
T9998 2212:535.082 JLINK_ReadMemHW(0x400E0A08, 0x0004 Bytes, ...)
T9998 2212:535.089   CPU_ReadMem(4 bytes @ 0x400E0A08)
T9998 2212:535.410   Data:  01 00 00 00
T9998 2212:535.419 - 0.339ms returns 0
T9998 2212:535.447 JLINK_SetResetType(JLINKARM_CM3_RESET_TYPE_NORMAL)
T9998 2212:535.452 - 0.007ms returns JLINKARM_CM3_RESET_TYPE_NORMAL
T9998 2212:535.458 JLINK_Reset()
T9998 2212:535.803   CPU_ReadMem(16 bytes @ 0x20000000)
T9998 2212:536.178   CPU_WriteMem(16 bytes @ 0x20000000)
T9998 2212:536.654   CPU_ReadMem(4 bytes @ 0xE000EDFC)
T9998 2212:537.004   CPU_WriteMem(4 bytes @ 0xE000EDFC)
T9998 2212:537.413   CPU_ReadMem(4 bytes @ 0xE0001000)
T9998 2212:552.737   CPU_WriteMem(4 bytes @ 0xE000EDFC)
T9998 2212:553.180   CPU_WriteMem(16 bytes @ 0x20000000)
T9998 2212:556.602   CPU_WriteMem(4 bytes @ 0xE0002000)
T9998 2212:557.099   CPU_ReadMem(4 bytes @ 0xE000EDFC)
T9998 2212:557.480   CPU_ReadMem(4 bytes @ 0xE0001000)
T9998 2212:557.880 - 22.436ms
T9998 2212:559.368 JLINK_JTAG_GetDeviceID(DeviceIndex = 0)
T9998 2212:559.377 - 0.011ms returns 0
T9998 2212:559.384 JLINK_ReadMemU32(0x400E0740, 0x1 Items)
T9998 2212:559.396   CPU_ReadMem(4 bytes @ 0x400E0740)
T9998 2212:559.738   Data:  E0 0A 9C 28
T9998 2212:559.753 - 0.372ms returns 1 (0x1)
T9998 2212:559.814 JLINK_ReadMemU32(0x400E0744, 0x1 Items)
T9998 2212:559.824   CPU_ReadMem(4 bytes @ 0x400E0744)
T9998 2212:560.238   Data:  00 00 00 00
T9998 2212:560.261 - 0.451ms returns 1 (0x1)
T624C 2212:569.445 JLINK_IsHalted()
T624C 2212:569.479 - 0.036ms returns TRUE
T624C 2212:569.487 JLINK_GetMOEs(...)
T624C 2212:569.496   CPU_ReadMem(4 bytes @ 0xE000ED30)
T624C 2212:569.862 - 0.380ms returns 0x01
T624C 2212:569.873 JLINK_ReadReg(R15 (PC))
T624C 2212:569.882 - 0.010ms returns 0xFFFFFFFE
T9998 2212:610.389 JLINK_BeginDownload(Flags = 0x00000000)
T9998 2212:610.405 - 0.019ms
T9998 2212:610.418 JLINK_WriteMem(0x00400000, 0x2BC4 Bytes, ...)
T9998 2212:610.424   Data:  08 39 00 20 65 13 40 00 61 13 40 00 61 13 40 00 ...
T9998 2212:610.663   completely In flash
T9998 2212:610.693    -- Read from flash cache (11204 bytes @ 0x00400000)
T9998 2212:610.703 - 0.288ms returns 0x2BC4
T9998 2212:610.925 JLINK_WriteMem(0x00402BC4, 0x43C Bytes, ...)
T9998 2212:610.936   Data:  BF F3 5F 8F 01 38 FB D1 70 47 00 00 00 09 3D 00 ...
T9998 2212:610.948   completely In flash
T9998 2212:610.958    -- Read from flash cache (1084 bytes @ 0x00402BC4)
T9998 2212:610.966 - 0.044ms returns 0x43C
T9998 2212:615.580 JLINK_EndDownload()
T9998 2212:615.814   CPU_ReadMem(4 bytes @ 0xE000ED90)
T9998 2212:616.173   CPU_ReadMem(4 bytes @ 0xE000ED94)
T9998 2212:617.008    -- --------------------------------------
T9998 2212:617.022   Flash bank @ 0x00400000: Default: L2 verify disabled because algorithm performs L1 verify
T9998 2212:617.028    -- Start of determining dirty areas in flash cache
T9998 2212:617.094    -- End of determining dirty areas
T9998 2212:617.100    -- Start of preparing flash programming
T9998 2212:617.108    -- Calculating RAM usage
T9998 2212:622.995    -- RAM usage = 2892 Bytes
T9998 2212:623.011    -- Preserving CPU registers
T9998 2212:623.364    -- Preparing memory
T9998 2212:623.381    -- Preparing target
T9998 2212:780.265    -- Preserving target RAM temporarily used for programming
T9998 2212:795.609    -- Downloading RAMCode
T9998 2212:812.381    -- Preparing RAMCode
T9998 2212:818.737    -- Checking target RAM
T9998 2212:819.708    -- End of preparing flash programming
T9998 2212:819.888   Looking for J-Link GUI Server exe at: C:\Program Files (x86)\Atmel\Studio\7.0\atbackend\JLinkGUIServer.exe
T9998 2212:819.944   Looking for J-Link GUI Server exe at: C:\Program Files\SEGGER\JLink_V812a\JLinkGUIServer.exe
T9998 2212:819.973   Forking J-Link GUI Server: C:\Program Files\SEGGER\JLink_V812a\JLinkGUIServer.exe
T9998 2212:846.081   J-Link GUI Server info: "J-Link GUI server V8.12a "
T9998 2212:917.526    -- CPU is running at 90000 kHz.
T9998 2212:917.550    -- Start of comparing flash
T9998 2212:917.560    -- CRC check was estimated as fastest method
T9998 2212:987.634    -- Comparing range 0x400000 - 0x402FFF (24 Sectors, 12 KiB), using multi-block CRC calculation
T9998 2213:001.003    -- CRC does not match for sectors 0-23
T9998 2213:001.024    -- End of comparing flash
T9998 2213:001.033    -- Start of erasing sectors
T9998 2213:001.041    -- End of erasing sectors
T9998 2213:001.048    -- Start of flash programming
T9998 2213:001.058    -- Programming range 0x00400000 - 0x00402FFF ( 24 Sectors, 12 KB)
T9998 2213:154.665    -- End of flash programming
T9998 2213:154.687    -- 0x400000 - 0x402FFF ( 24 Sectors, 12 KoB)
T9998 2213:154.696    -- Start of restoring
T9998 2213:154.705    -- Restoring RAMCode
T9998 2213:168.194    -- Restoring target memory
T9998 2213:182.856    -- Restore target
T9998 2213:234.888    -- Restore memory
T9998 2213:234.920    -- Restoring CPU registers
T9998 2213:234.938    -- End of restoring
T9998 2213:235.104    -- Bank 0 @ 0x00400000: 1 range affected (12288 bytes)
T9998 2213:235.181    -- Total: 0.617s (Prepare: 0.300s, Compare: 0.083s, Erase: 0.000s, Program & Verify: 0.162s, Restore: 0.071s)
T9998 2213:235.225    -- Program & Verify speed: 73 KiB/s
T9998 2213:242.666 - 627.098ms returns 12288 (0x3000)
T9998 2213:243.052 JLINK_SetResetType(JLINKARM_CM3_RESET_TYPE_NORMAL)
T9998 2213:243.079 - 0.030ms returns JLINKARM_CM3_RESET_TYPE_NORMAL
T9998 2213:243.088 JLINK_Reset()
T9998 2213:243.439   CPU_ReadMem(16 bytes @ 0x20000000)
T9998 2213:243.905   CPU_WriteMem(16 bytes @ 0x20000000)
T9998 2213:244.355   CPU_ReadMem(4 bytes @ 0xE000EDFC)
T9998 2213:244.716   CPU_WriteMem(4 bytes @ 0xE000EDFC)
T9998 2213:245.119   CPU_ReadMem(4 bytes @ 0xE0001000)
T9998 2213:262.422   CPU_WriteMem(4 bytes @ 0xE000EDFC)
T9998 2213:262.804   CPU_WriteMem(16 bytes @ 0x20000000)
T9998 2213:266.290   CPU_WriteMem(4 bytes @ 0xE0002000)
T9998 2213:266.682   CPU_ReadMem(4 bytes @ 0xE000EDFC)
T9998 2213:267.121   CPU_ReadMem(4 bytes @ 0xE0001000)
T9998 2213:267.601 - 24.522ms
T624C 2213:375.961 JLINK_IsHalted()
T624C 2213:375.985 - 0.027ms returns TRUE
T624C 2213:576.993 JLINK_IsHalted()
T624C 2213:577.049 - 0.065ms returns TRUE
T624C 2213:777.048 JLINK_IsHalted()
T624C 2213:777.560 - 0.521ms returns TRUE
T2958 2213:956.065 JLINK_Halt()
T2958 2213:956.080 - 0.017ms returns 0x00
T2958 2213:956.380 JLINK_ReadReg(R15 (PC))
T2958 2213:956.400 - 0.022ms returns 0x00401364
T2958 2213:956.415 JLINK_ReadReg(R13 (SP))
T2958 2213:956.422 - 0.009ms returns 0x20003908
T2958 2213:962.315 JLINK_ReadMemHW(0x00401364, 0x0004 Bytes, ...)
T2958 2213:962.341   CPU_ReadMem(4 bytes @ 0x00401364)
T2958 2213:962.747   Data:  08 B5 21 4B
T2958 2213:962.777 - 0.464ms returns 0
T2958 2213:963.101 JLINK_ReadReg(R0)
T2958 2213:963.117 - 0.024ms returns 0x400E1400
T2958 2213:963.127 JLINK_ReadReg(R1)
T2958 2213:963.132 - 0.007ms returns 0x40C00000
T2958 2213:963.139 JLINK_ReadReg(R2)
T2958 2213:963.144 - 0.007ms returns 0xA5000005
T2958 2213:963.151 JLINK_ReadReg(R3)
T2958 2213:963.157 - 0.008ms returns 0x00000020
T2958 2213:963.164 JLINK_ReadReg(R4)
T2958 2213:963.170 - 0.008ms returns 0x40024000
T2958 2213:963.177 JLINK_ReadReg(R5)
T2958 2213:963.182 - 0.007ms returns 0x00400689
T2958 2213:963.189 JLINK_ReadReg(R6)
T2958 2213:963.194 - 0.007ms returns 0x00406E4C
T2958 2213:963.202 JLINK_ReadReg(R7)
T2958 2213:963.207 - 0.007ms returns 0x004019B1
T2958 2213:963.214 JLINK_ReadReg(R8)
T2958 2213:963.219 - 0.008ms returns 0x22434540
T2958 2213:963.227 JLINK_ReadReg(R9)
T2958 2213:963.233 - 0.008ms returns 0xFC38405F
T2958 2213:963.241 JLINK_ReadReg(R10)
T2958 2213:963.246 - 0.007ms returns 0x4000C6C8
T2958 2213:963.253 JLINK_ReadReg(R11)
T2958 2213:963.259 - 0.008ms returns 0x0100430D
T2958 2213:963.267 JLINK_ReadReg(R12)
T2958 2213:963.272 - 0.008ms returns 0x00000000
T2958 2213:963.280 JLINK_ReadReg(R13 (SP))
T2958 2213:963.286 - 0.008ms returns 0x20003908
T2958 2213:963.293 JLINK_ReadReg(R14)
T2958 2213:963.299 - 0.008ms returns 0xFFFFFFFF
T2958 2213:963.306 JLINK_ReadReg(R15 (PC))
T2958 2213:963.312 - 0.008ms returns 0x00401364
T2958 2213:963.328 JLINK_ReadReg(XPSR)
T2958 2213:963.334 - 0.008ms returns 0x01000000
T2958 2213:963.341 JLINK_ReadReg(MSP)
T2958 2213:963.347 - 0.007ms returns 0x20003908
T2958 2213:963.354 JLINK_ReadReg(PSP)
T2958 2213:963.359 - 0.007ms returns 0x32A48860
T2958 2213:963.366 JLINK_ReadReg(PRIMASK)
T2958 2213:963.371 - 0.007ms returns 0x00000000
T2958 2213:963.378 JLINK_ReadReg(BASEPRI)
T2958 2213:963.384 - 0.008ms returns 0x00000000
T2958 2213:963.391 JLINK_ReadReg(FAULTMASK)
T2958 2213:963.396 - 0.007ms returns 0x00000000
T2958 2213:963.403 JLINK_ReadReg(CONTROL)
T2958 2213:963.409 - 0.008ms returns 0x00000000
T2958 2213:963.632 JLINK_ReadMemHW(0x00401364, 0x0002 Bytes, ...)
T2958 2213:963.644   CPU_ReadMem(2 bytes @ 0x00401364)
T2958 2213:963.995   Data:  08 B5
T2958 2213:964.005 - 0.376ms returns 0
T624C 2213:977.804 JLINK_IsHalted()
T624C 2213:977.834 - 0.034ms returns TRUE
T2958 2214:001.158 JLINK_ReadReg(R0)
T2958 2214:001.176 - 0.021ms returns 0x400E1400
T2958 2214:001.187 JLINK_ReadReg(R1)
T2958 2214:001.193 - 0.008ms returns 0x40C00000
T2958 2214:001.201 JLINK_ReadReg(R2)
T2958 2214:001.207 - 0.008ms returns 0xA5000005
T2958 2214:001.215 JLINK_ReadReg(R3)
T2958 2214:001.220 - 0.008ms returns 0x00000020
T2958 2214:001.227 JLINK_ReadReg(R4)
T2958 2214:001.232 - 0.006ms returns 0x40024000
T2958 2214:001.239 JLINK_ReadReg(R5)
T2958 2214:001.245 - 0.008ms returns 0x00400689
T2958 2214:001.251 JLINK_ReadReg(R6)
T2958 2214:001.256 - 0.007ms returns 0x00406E4C
T2958 2214:001.263 JLINK_ReadReg(R7)
T2958 2214:001.268 - 0.007ms returns 0x004019B1
T2958 2214:001.274 JLINK_ReadReg(R8)
T2958 2214:001.280 - 0.007ms returns 0x22434540
T2958 2214:001.287 JLINK_ReadReg(R9)
T2958 2214:001.292 - 0.008ms returns 0xFC38405F
T2958 2214:001.299 JLINK_ReadReg(R10)
T2958 2214:001.304 - 0.007ms returns 0x4000C6C8
T2958 2214:001.311 JLINK_ReadReg(R11)
T2958 2214:001.316 - 0.007ms returns 0x0100430D
T2958 2214:001.323 JLINK_ReadReg(R12)
T2958 2214:001.329 - 0.007ms returns 0x00000000
T2958 2214:001.335 JLINK_ReadReg(R13 (SP))
T2958 2214:001.341 - 0.008ms returns 0x20003908
T2958 2214:001.348 JLINK_ReadReg(R14)
T2958 2214:001.353 - 0.007ms returns 0xFFFFFFFF
T2958 2214:001.361 JLINK_ReadReg(R15 (PC))
T2958 2214:001.367 - 0.008ms returns 0x00401364
T2958 2214:001.381 JLINK_ReadReg(XPSR)
T2958 2214:001.387 - 0.008ms returns 0x01000000
T2958 2214:001.394 JLINK_ReadReg(MSP)
T2958 2214:001.399 - 0.007ms returns 0x20003908
T2958 2214:001.406 JLINK_ReadReg(PSP)
T2958 2214:001.411 - 0.007ms returns 0x32A48860
T2958 2214:001.418 JLINK_ReadReg(PRIMASK)
T2958 2214:001.423 - 0.007ms returns 0x00000000
T2958 2214:001.430 JLINK_ReadReg(BASEPRI)
T2958 2214:001.435 - 0.007ms returns 0x00000000
T2958 2214:001.442 JLINK_ReadReg(FAULTMASK)
T2958 2214:001.447 - 0.007ms returns 0x00000000
T2958 2214:001.454 JLINK_ReadReg(CONTROL)
T2958 2214:001.459 - 0.007ms returns 0x00000000
T2958 2214:023.032 JLINK_ReadMemHW(0x00401364, 0x0004 Bytes, ...)
T2958 2214:023.056   CPU_ReadMem(4 bytes @ 0x00401364)
T2958 2214:023.417   Data:  08 B5 21 4B
T2958 2214:023.428 - 0.398ms returns 0
T624C 2214:178.144 JLINK_IsHalted()
T624C 2214:178.168 - 0.027ms returns TRUE
T624C 2214:379.035 JLINK_IsHalted()
T624C 2214:379.599 - 0.574ms returns TRUE
T9998 2214:380.201 JLINK_ResetPullsRESET(ON)
T9998 2214:380.213 - 0.015ms
T9998 2214:380.220 JLINK_ResetNoHalt()
T9998 2214:381.263   Found SW-DP with ID 0x2BA01477
T9998 2214:383.621   DPIDR: 0x2BA01477
T9998 2214:383.642   AP map detection skipped. Manually configured AP map found.
T9998 2214:383.656   AP[0]: AHB-AP (IDR: Not set)
T9998 2214:384.808   AP[0]: Core found
T9998 2214:384.830   AP[0]: AHB-AP ROM base: 0xE00FF000
T9998 2214:385.380   CPUID register: 0x410FC241. Implementer code: 0x41 (ARM)
T9998 2214:385.402   Found Cortex-M4 r0p1, Little endian.
T9998 2214:485.891   -- Max. mem block: 0x000029C8
T9998 2214:485.917   CPU_ReadMem(4 bytes @ 0xE000EDF0)
T9998 2214:486.258   CPU_ReadMem(4 bytes @ 0xE0002000)
T9998 2214:486.754   FPUnit: 6 code (BP) slots and 2 literal slots
T9998 2214:486.772   CPU_ReadMem(4 bytes @ 0xE000EDFC)
T9998 2214:487.416   CPU_ReadMem(4 bytes @ 0xE0001000)
T9998 2214:487.804   CPU_ReadMem(4 bytes @ 0xE000ED88)
T9998 2214:488.186   CPU_WriteMem(4 bytes @ 0xE000ED88)
T9998 2214:488.635   CPU_ReadMem(4 bytes @ 0xE000ED88)
T9998 2214:489.038   CPU_WriteMem(4 bytes @ 0xE000ED88)
T9998 2214:489.633   CoreSight components:
T9998 2214:489.733   ROMTbl[0] @ E00FF000
T9998 2214:489.757   CPU_ReadMem(64 bytes @ 0xE00FF000)
T9998 2214:490.465   CPU_ReadMem(32 bytes @ 0xE000EFE0)
T9998 2214:491.007   ROMTbl[0][0]: E000E000, CID: B105E00D, PID: 000BB000 SCS
T9998 2214:491.024   CPU_WriteMem(4 bytes @ 0xE0001000)
T9998 2214:491.451   CPU_ReadMem(32 bytes @ 0xE0001FE0)
T9998 2214:492.084   ROMTbl[0][1]: E0001000, CID: B105E00D, PID: 003BB002 DWT
T9998 2214:492.103   CPU_ReadMem(32 bytes @ 0xE0002FE0)
T9998 2214:492.982   ROMTbl[0][2]: E0002000, CID: B105E00D, PID: 002BB003 FPB
T9998 2214:493.025   CPU_ReadMem(32 bytes @ 0xE0000FE0)
T9998 2214:493.644   ROMTbl[0][3]: E0000000, CID: B105E00D, PID: 003BB001 ITM
T9998 2214:493.656   CPU_ReadMem(32 bytes @ 0xE0040FE0)
T9998 2214:494.256   ROMTbl[0][4]: E0040000, CID: B105900D, PID: 000BB9A1 TPIU
T9998 2214:494.278   JLINK_Reset()
T9998 2214:494.290     CPU_ReadMem(16 bytes @ 0x20000000)
T9998 2214:494.703     CPU_WriteMem(16 bytes @ 0x20000000)
T9998 2214:495.197     CPU_ReadMem(4 bytes @ 0xE000EDFC)
T9998 2214:495.595     CPU_WriteMem(4 bytes @ 0xE000EDFC)
T9998 2214:496.055     CPU_ReadMem(4 bytes @ 0xE0001000)
T9998 2214:496.464     CPU_WriteMem(4 bytes @ 0xE0001004)
T9998 2214:511.477     CPU_WriteMem(4 bytes @ 0xE000EDFC)
T9998 2214:511.892     CPU_WriteMem(16 bytes @ 0x20000000)
T9998 2214:515.320     CPU_WriteMem(4 bytes @ 0xE0002000)
T9998 2214:515.766     CPU_ReadMem(4 bytes @ 0xE000EDFC)
T9998 2214:516.237     CPU_ReadMem(4 bytes @ 0xE0001000)
T9998 2214:516.596   - 22.326ms
T9998 2214:516.614   JLINK_Go()
T9998 2214:516.639     CPU_ReadMem(4 bytes @ 0xE0001000)
T9998 2214:517.072     CPU_WriteMem(4 bytes @ 0xE0001004)
T9998 2214:517.952   - 1.360ms
T9998 2214:517.979 - 137.761ms
T9998 2214:524.108 JLINK_Close()
T9998 2214:540.444 - 16.350ms
T9998 2214:540.462   
T9998 2214:540.467   Closed
